(1635000000.000000) vcan0 244#0000000000000000
(1635000000.016700) vcan0 188#0000000000000000
(1635000000.033400) vcan0 19B#0F00000000000000
(1635000000.050100) vcan0 244#0000000000000000
(1635000000.066800) vcan0 188#0000000000000000
(1635000000.083500) vcan0 19B#0F00000000000000
(1635000000.100200) vcan0 244#0000000000000000
(1635000000.116900) vcan0 188#0000000000000000
(1635000000.133600) vcan0 19B#0F00000000000000
(1635000000.150300) vcan0 244#0000000005000000
(1635000000.167000) vcan0 188#0000000000000000
(1635000000.183700) vcan0 19B#0F00000000000000
(1635000000.200400) vcan0 244#000000000A000000
(1635000000.217100) vcan0 188#0000000000000000
(1635000000.233800) vcan0 19B#0F00000000000000
(1635000000.250500) vcan0 244#0000000014000000
(1635000000.267200) vcan0 188#0000000000000000
(1635000000.283900) vcan0 19B#0F00000000000000
(1635000000.300600) vcan0 244#000000001E000000
(1635000000.317300) vcan0 188#0000000000000000
(1635000000.334000) vcan0 19B#0F00000000000000
(1635000000.350700) vcan0 244#0000000028000000
(1635000000.367400) vcan0 188#0000000000000000
(1635000000.384100) vcan0 19B#0F00000000000000
(1635000000.400800) vcan0 244#0000000032000000
(1635000000.417500) vcan0 188#0000000000000000
(1635000000.434200) vcan0 19B#0F00000000000000
(1635000000.450900) vcan0 244#000000003C000000
(1635000000.467600) vcan0 188#0100000000000000
(1635000000.484300) vcan0 19B#0F00000000000000
(1635000000.501000) vcan0 244#0000000046000000
(1635000000.517700) vcan0 188#0100000000000000
(1635000000.534400) vcan0 19B#0F00000000000000
(1635000000.551100) vcan0 244#0000000050000000
(1635000000.567800) vcan0 188#0100000000000000
(1635000000.584500) vcan0 19B#0F00000000000000
(1635000000.601200) vcan0 244#000000005A000000
(1635000000.617900) vcan0 188#0100000000000000
(1635000000.634600) vcan0 19B#0F00000000000000
(1635000000.651300) vcan0 244#0000000064000000
(1635000000.668000) vcan0 188#0100000000000000
(1635000000.684700) vcan0 19B#0F00000000000000
(1635000000.701400) vcan0 244#000000006E000000
(1635000000.718100) vcan0 188#0000000000000000
(1635000000.734800) vcan0 19B#0F00000000000000
(1635000000.751500) vcan0 244#0000000078000000
(1635000000.768200) vcan0 188#0000000000000000
(1635000000.784900) vcan0 19B#0F00000000000000
(1635000000.801600) vcan0 244#0000000082000000
(1635000000.818300) vcan0 188#0200000000000000
(1635000000.835000) vcan0 19B#0F00000000000000
(1635000000.851700) vcan0 244#000000008C000000
(1635000000.868400) vcan0 188#0200000000000000
(1635000000.885100) vcan0 19B#0F00000000000000
(1635000000.901800) vcan0 244#0000000096000000
(1635000000.918500) vcan0 188#0200000000000000
(1635000000.935200) vcan0 19B#0F00000000000000
(1635000000.951900) vcan0 244#00000000A0000000
(1635000000.968600) vcan0 188#0200000000000000
(1635000000.985300) vcan0 19B#0F00000000000000
(1635000001.002000) vcan0 244#00000000AA000000
(1635000001.018700) vcan0 188#0000000000000000
(1635000001.035400) vcan0 19B#0F00000000000000
(1635000001.052100) vcan0 244#00000000B4000000
(1635000001.068800) vcan0 188#0000000000000000
(1635000001.085500) vcan0 19B#0F00000000000000
(1635000001.102200) vcan0 244#00000000BE000000
(1635000001.118900) vcan0 188#0000000000000000
(1635000001.135600) vcan0 19B#0F00000000000000
(1635000001.152300) vcan0 244#00000000C8000000
(1635000001.169000) vcan0 188#0000000000000000
(1635000001.185700) vcan0 19B#0F00000000000000
(1635000001.202400) vcan0 244#00000000D2000000
(1635000001.219100) vcan0 188#0000000000000000
(1635000001.235800) vcan0 19B#0F00000000000000
(1635000001.252500) vcan0 244#00000000DC000000
(1635000001.269200) vcan0 188#0000000000000000
(1635000001.285900) vcan0 19B#0F00000000000000
(1635000001.302600) vcan0 244#00000000E6000000
(1635000001.319300) vcan0 188#0000000000000000
(1635000001.336000) vcan0 19B#0F00000000000000
(1635000001.352700) vcan0 244#00000000F0000000
(1635000001.369400) vcan0 188#0000000000000000
(1635000001.386100) vcan0 19B#0F00000000000000
(1635000001.402800) vcan0 244#00000000FF000000
(1635000001.419500) vcan0 188#0000000000000000
(1635000001.436200) vcan0 19B#0F00000000000000
(1635000001.452900) vcan0 244#00000000FF000000
(1635000001.469600) vcan0 188#0000000000000000
(1635000001.486300) vcan0 19B#0F00000000000000
(1635000001.503000) vcan0 244#00000000FF000000
(1635000001.519700) vcan0 188#0000000000000000
(1635000001.536400) vcan0 19B#0F00000000000000
(1635000001.553100) vcan0 244#00000000E6000000
(1635000001.569800) vcan0 188#0000000000000000
(1635000001.586500) vcan0 19B#0F00000000000000
(1635000001.603200) vcan0 244#00000000C8000000
(1635000001.619900) vcan0 188#0000000000000000
(1635000001.636600) vcan0 19B#0F00000000000000
(1635000001.653300) vcan0 244#00000000AA000000
(1635000001.670000) vcan0 188#0000000000000000
(1635000001.686700) vcan0 19B#0F00000000000000
(1635000001.703400) vcan0 244#0000000096000000
(1635000001.720100) vcan0 188#0000000000000000
(1635000001.736800) vcan0 19B#0F00000000000000
(1635000001.753500) vcan0 244#0000000078000000
(1635000001.770200) vcan0 188#0000000000000000
(1635000001.786900) vcan0 19B#0F00000000000000
(1635000001.803600) vcan0 244#0000000050000000
(1635000001.820300) vcan0 188#0000000000000000
(1635000001.837000) vcan0 19B#0F00000000000000
(1635000001.853700) vcan0 244#0000000028000000
(1635000001.870400) vcan0 188#0000000000000000
(1635000001.887100) vcan0 19B#0000000000000000
(1635000001.903800) vcan0 244#0000000014000000
(1635000001.920500) vcan0 188#0000000000000000
(1635000001.937200) vcan0 19B#0000000000000000
(1635000001.953900) vcan0 244#0000000005000000
(1635000001.970600) vcan0 188#0000000000000000
(1635000001.987300) vcan0 19B#0000000000000000
(1635000002.004000) vcan0 244#0000000000000000
(1635000002.020700) vcan0 188#0000000000000000
(1635000002.037400) vcan0 19B#0000000000000000
